Freq.	V(output)
Step Information: A=990m  (Run: 1/5)
1.00000000000000e+000	(8.45706350655286e-002dB,-6.84220661290351e-002°)
1.02329299228075e+000	(8.45706452404608e-002dB,-7.00158216531721e-002°)
1.04712854805090e+000	(8.45706558949209e-002dB,-7.16467005743625e-002°)
1.07151930523761e+000	(8.45706670514962e-002dB,-7.33155676120380e-002°)
1.09647819614318e+000	(8.45706787338512e-002dB,-7.50233076278466e-002°)
1.12201845430196e+000	(8.45706909667677e-002dB,-7.67708260948573e-002°)
1.14815362149688e+000	(8.45707037761831e-002dB,-7.85590495776719e-002°)
1.17489755493953e+000	(8.45707171892723e-002dB,-8.03889262237512e-002°)
1.20226443461741e+000	(8.45707312344692e-002dB,-8.22614262661611e-002°)
1.23026877081238e+000	(8.45707459415939e-002dB,-8.41775425380476e-002°)
1.25892541179417e+000	(8.45707613418076e-002dB,-8.61382909990917e-002°)
1.28824955169313e+000	(8.45707774677880e-002dB,-8.81447112742282e-002°)
1.31825673855641e+000	(8.45707943537330e-002dB,-9.01978672049162e-002°)
1.34896288259165e+000	(8.45708120354621e-002dB,-9.22988474132586e-002°)
1.38038426460288e+000	(8.45708305504660e-002dB,-9.44487658792560e-002°)
1.41253754462275e+000	(8.45708499380253e-002dB,-9.66487625315135e-002°)
1.44543977074593e+000	(8.45708702392461e-002dB,-9.89000038517090e-002°)
1.47910838816821e+000	(8.45708914971850e-002dB,-1.01203683493149e-001°)
1.51356124843621e+000	(8.45709137569380e-002dB,-1.03561022913728e-001°)
1.54881661891248e+000	(8.45709370657062e-002dB,-1.05973272023644e-001°)
1.58489319246111e+000	(8.45709614729235e-002dB,-1.08441709848198e-001°)
1.62181009735893e+000	(8.45709870303518e-002dB,-1.10967645206049e-001°)
1.65958690743756e+000	(8.45710137921922e-002dB,-1.13552417403249e-001°)
1.69824365246174e+000	(8.45710418152031e-002dB,-1.16197396943480e-001°)
1.73780082874937e+000	(8.45710711588094e-002dB,-1.18903986254810e-001°)
1.77827941003892e+000	(8.45711018852473e-002dB,-1.21673620433409e-001°)
1.81970085860998e+000	(8.45711340596774e-002dB,-1.24507768004578e-001°)
1.86208713666287e+000	(8.45711677503293e-002dB,-1.27407931701517e-001°)
1.90546071796325e+000	(8.45712030286510e-002dB,-1.30375649262244e-001°)
1.94984459975804e+000	(8.45712399694446e-002dB,-1.33412494245074e-001°)
1.99526231496888e+000	(8.45712786510626e-002dB,-1.36520076863116e-001°)
2.04173794466953e+000	(8.45713191555267e-002dB,-1.39700044838204e-001°)
2.08929613085404e+000	(8.45713615687260e-002dB,-1.42954084274737e-001°)
2.13796208950223e+000	(8.45714059806087e-002dB,-1.46283920553879e-001°)
2.18776162394955e+000	(8.45714524853436e-002dB,-1.49691319248597e-001°)
2.23872113856834e+000	(8.45715011815406e-002dB,-1.53178087060037e-001°)
2.29086765276777e+000	(8.45715521724618e-002dB,-1.56746072775707e-001°)
2.34422881531992e+000	(8.45716055662307e-002dB,-1.60397168250004e-001°)
2.39883291901949e+000	(8.45716614760622e-002dB,-1.64133309407590e-001°)
2.45470891568503e+000	(8.45717200205005e-002dB,-1.67956477270165e-001°)
2.51188643150958e+000	(8.45717813236875e-002dB,-1.71868699007160e-001°)
2.57039578276886e+000	(8.45718455155909e-002dB,-1.75872049010916e-001°)
2.63026799189538e+000	(8.45719127323262e-002dB,-1.79968649996974e-001°)
2.69153480392691e+000	(8.45719831163884e-002dB,-1.84160674129936e-001°)
2.75422870333816e+000	(8.45720568170147e-002dB,-1.88450344175652e-001°)
2.81838293126445e+000	(8.45721339904594e-002dB,-1.92839934680214e-001°)
2.88403150312660e+000	(8.45722148003244e-002dB,-1.97331773176463e-001°)
2.95120922666638e+000	(8.45722994179413e-002dB,-2.01928241418623e-001°)
3.01995172040201e+000	(8.45723880226847e-002dB,-2.06631776645716e-001°)
3.09029543251359e+000	(8.45724808023825e-002dB,-2.11444872874445e-001°)
3.16227766016837e+000	(8.45725779537229e-002dB,-2.16370082222228e-001°)
3.23593656929628e+000	(8.45726796826403e-002dB,-2.21410016261083e-001°)
3.31131121482591e+000	(8.45727862047700e-002dB,-2.26567347403058e-001°)
3.38844156139202e+000	(8.45728977459100e-002dB,-2.31844810318049e-001°)
3.46736850452531e+000	(8.45730145424643e-002dB,-2.37245203384590e-001°)
3.54813389233575e+000	(8.45731368420007e-002dB,-2.42771390174578e-001°)
3.63078054770101e+000	(8.45732649037015e-002dB,-2.48426300972558e-001°)
3.71535229097172e+000	(8.45733989989881e-002dB,-2.54212934330497e-001°)
3.80189396320560e+000	(8.45735394120365e-002dB,-2.60134358658816e-001°)
3.89045144994280e+000	(8.45736864404174e-002dB,-2.66193713854547e-001°)
3.98107170553496e+000	(8.45738403956880e-002dB,-2.72394212967480e-001°)
4.07380277804112e+000	(8.45740016040627e-002dB,-2.78739143905189e-001°)
4.16869383470335e+000	(8.45741704071386e-002dB,-2.85231871177877e-001°)
4.26579518801592e+000	(8.45743471625719e-002dB,-2.91875837683886e-001°)
4.36515832240165e+000	(8.45745322448378e-002dB,-2.98674566536976e-001°)
4.46683592150962e+000	(8.45747260460480e-002dB,-3.05631662936161e-001°)
4.57088189614874e+000	(8.45749289767418e-002dB,-3.12750816079291e-001°)
4.67735141287197e+000	(8.45751414668004e-002dB,-3.20035801121261e-001°)
4.78630092322637e+000	(8.45753639663105e-002dB,-3.27490481177956e-001°)
4.89778819368445e+000	(8.45755969465212e-002dB,-3.35118809377036e-001°)
5.01187233627271e+000	(8.45758409008619e-002dB,-3.42924830956562e-001°)
5.12861383991364e+000	(8.45760963459567e-002dB,-3.50912685412736e-001°)
5.24807460249771e+000	(8.45763638227242e-002dB,-3.59086608697725e-001°)
5.37031796370252e+000	(8.45766438975160e-002dB,-3.67450935468911e-001°)
5.49540873857623e+000	(8.45769371633009e-002dB,-3.76010101390718e-001°)
5.62341325190348e+000	(8.45772442409541e-002dB,-3.84768645490164e-001°)
5.75439937337156e+000	(8.45775657804718e-002dB,-3.93731212567595e-001°)
5.88843655355588e+000	(8.45779024624671e-002dB,-4.02902555663710e-001°)
6.02559586074356e+000	(8.45782549994775e-002dB,-4.12287538584314e-001°)
6.16595001861481e+000	(8.45786241375587e-002dB,-4.21891138484127e-001°)
6.30957344480192e+000	(8.45790106577681e-002dB,-4.31718448511049e-001°)
6.45654229034654e+000	(8.45794153778971e-002dB,-4.41774680512321e-001°)
6.60693448007594e+000	(8.45798391540987e-002dB,-4.52065167803978e-001°)
6.76082975391980e+000	(8.45802828827454e-002dB,-4.62595368005214e-001°)
6.91830970918935e+000	(8.45807475022901e-002dB,-4.73370865939038e-001°)
7.07945784384136e+000	(8.45812339952136e-002dB,-4.84397376600978e-001°)
7.24435960074988e+000	(8.45817433901334e-002dB,-4.95680748197239e-001°)
7.41310241300916e+000	(8.45822767638896e-002dB,-5.07226965254142e-001°)
7.58577575029182e+000	(8.45828352438537e-002dB,-5.19042151800389e-001°)
7.76247116628690e+000	(8.45834200102626e-002dB,-5.31132574624034e-001°)
7.94328234724279e+000	(8.45840322986880e-002dB,-5.43504646605780e-001°)
8.12830516164097e+000	(8.45846734026132e-002dB,-5.56164930130545e-001°)
8.31763771102669e+000	(8.45853446761413e-002dB,-5.69120140579068e-001°)
8.51138038202374e+000	(8.45860475368044e-002dB,-5.82377149901557e-001°)
8.70963589956078e+000	(8.45867834685433e-002dB,-5.95942990275193e-001°)
8.91250938133743e+000	(8.45875540247461e-002dB,-6.09824857847735e-001°)
9.12010839355907e+000	(8.45883608315372e-002dB,-6.24030116568990e-001°)
9.33254300796988e+000	(8.45892055911289e-002dB,-6.38566302112422e-001°)
9.54992586021433e+000	(8.45900900853322e-002dB,-6.53441125889171e-001°)
9.77237220955808e+000	(8.45910161792980e-002dB,-6.68662479156385e-001°)
9.99999999999997e+000	(8.45919858253427e-002dB,-6.84238437222453e-001°)
1.02329299228075e+001	(8.45930010670162e-002dB,-7.00177263751233e-001°)
1.04712854805090e+001	(8.45940640432619e-002dB,-7.16487415167886e-001°)
1.07151930523760e+001	(8.45951769929467e-002dB,-7.33177545168554e-001°)
1.09647819614318e+001	(8.45963422593473e-002dB,-7.50256509336486e-001°)
1.12201845430196e+001	(8.45975622950590e-002dB,-7.67733369867295e-001°)
1.14815362149688e+001	(8.45988396669933e-002dB,-7.85617400405809e-001°)
1.17489755493953e+001	(8.46001770616743e-002dB,-8.03918090997348e-001°)
1.20226443461741e+001	(8.46015772907180e-002dB,-8.22645153156186e-001°)
1.23026877081238e+001	(8.46030432965905e-002dB,-8.41808525054104e-001°)
1.25892541179416e+001	(8.46045781586224e-002dB,-8.61418376831836e-001°)
1.28824955169313e+001	(8.46061850992594e-002dB,-8.81485116036656e-001°)
1.31825673855640e+001	(8.46078674906725e-002dB,-9.02019393188920e-001°)
1.34896288259165e+001	(8.46096288615111e-002dB,-9.23032107481033e-001°)
1.38038426460288e+001	(8.46114729041488e-002dB,-9.44534412611869e-001°)
1.41253754462275e+001	(8.46134034820538e-002dB,-9.66537722760195e-001°)
1.44543977074592e+001	(8.46154246376589e-002dB,-9.89053718700355e-001°)
1.47910838816820e+001	(8.46175406004135e-002dB,-1.01209435406394e+000°)
1.51356124843620e+001	(8.46197557953297e-002dB,-1.03567186175101e+000°)
1.54881661891248e+001	(8.46220748517792e-002dB,-1.05979876049463e+000°)
1.58489319246111e+001	(8.46245026127708e-002dB,-1.08448786158248e+000°)
1.62181009735892e+001	(8.46270441445433e-002dB,-1.10975227573973e+000°)
1.65958690743755e+001	(8.46297047466014e-002dB,-1.13560542017695e+000°)
1.69824365246174e+001	(8.46324899622136e-002dB,-1.16206102580761e+000°)
1.73780082874937e+001	(8.46354055893112e-002dB,-1.18913314463914e+000°)
1.77827941003892e+001	(8.46384576918015e-002dB,-1.21683615734225e+000°)
1.81970085860998e+001	(8.46416526114770e-002dB,-1.24518478100288e+000°)
1.86208713666286e+001	(8.46449969803197e-002dB,-1.27419407706181e+000°)
1.90546071796324e+001	(8.46484977333265e-002dB,-1.30387945944635e+000°)
1.94984459975804e+001	(8.46521621218755e-002dB,-1.33425670289956e+000°)
1.99526231496887e+001	(8.46559977276318e-002dB,-1.36534195151184e+000°)
2.04173794466952e+001	(8.46600124770136e-002dB,-1.39715172746027e+000°)
2.08929613085403e+001	(8.46642146562228e-002dB,-1.42970293996142e+000°)
2.13796208950222e+001	(8.46686129268697e-002dB,-1.46301289444305e+000°)
2.18776162394954e+001	(8.46732163422142e-002dB,-1.49709930194044e+000°)
2.23872113856833e+001	(8.46780343639951e-002dB,-1.53198028872382e+000°)
2.29086765276776e+001	(8.46830768799791e-002dB,-1.56767440616268e+000°)
2.34422881531991e+001	(8.46883542220977e-002dB,-1.60420064083362e+000°)
2.39883291901948e+001	(8.46938771852408e-002dB,-1.64157842487841e+000°)
2.45470891568502e+001	(8.46996570467930e-002dB,-1.67982764661895e+000°)
2.51188643150957e+001	(8.47057055868779e-002dB,-1.71896866143649e+000°)
2.57039578276885e+001	(8.47120351091787e-002dB,-1.75902230292219e+000°)
2.63026799189537e+001	(8.47186584626658e-002dB,-1.80000989430697e+000°)
2.69153480392690e+001	(8.47255890638757e-002dB,-1.84195326017815e+000°)
2.75422870333815e+001	(8.47328409200789e-002dB,-1.88487473849129e+000°)
2.81838293126444e+001	(8.47404286530193e-002dB,-1.92879719288571e+000°)
2.88403150312659e+001	(8.47483675235244e-002dB,-1.97374402531223e+000°)
2.95120922666637e+001	(8.47566734567977e-002dB,-2.01973918898247e+000°)
3.01995172040200e+001	(8.47653630683993e-002dB,-2.06680720164893e+000°)
3.09029543251358e+001	(8.47744536910333e-002dB,-2.11497315922584e+000°)
3.16227766016837e+001	(8.47839634019171e-002dB,-2.16426274976081e+000°)
3.23593656929627e+001	(8.47939110509366e-002dB,-2.21470226776779e+000°)
3.31131121482590e+001	(8.48043162894055e-002dB,-2.26631862893249e+000°)
3.38844156139201e+001	(8.48151995994247e-002dB,-2.31913938520149e+000°)
3.46736850452530e+001	(8.48265823238430e-002dB,-2.37319274026708e+000°)
3.54813389233574e+001	(8.48384866967419e-002dB,-2.42850756545996e+000°)
3.63078054770100e+001	(8.48509358743871e-002dB,-2.48511341606290e+000°)
3.71535229097171e+001	(8.48639539665289e-002dB,-2.54304054805850e+000°)
3.80189396320559e+001	(8.48775660680701e-002dB,-2.60231993532537e+000°)
3.89045144994279e+001	(8.48917982909041e-002dB,-2.66298328729681e+000°)
3.98107170553495e+001	(8.49066777958317e-002dB,-2.72506306709764e+000°)
4.07380277804111e+001	(8.49222328245025e-002dB,-2.78859251017468e+000°)
4.16869383470333e+001	(8.49384927310858e-002dB,-2.85360564343771e+000°)
4.26579518801591e+001	(8.49554880136653e-002dB,-2.92013730492790e+000°)
4.36515832240164e+001	(8.49732503449627e-002dB,-2.98822316403207e+000°)
4.46683592150961e+001	(8.49918126024545e-002dB,-3.05789974226154e+000°)
4.57088189614873e+001	(8.50112088972715e-002dB,-3.12920443461531e+000°)
4.67735141287196e+001	(8.50314746018761e-002dB,-3.20217553154841e+000°)
4.78630092322636e+001	(8.50526463761262e-002dB,-3.27685224156677e+000°)
4.89778819368444e+001	(8.50747621912681e-002dB,-3.35327471447183e+000°)
5.01187233627270e+001	(8.50978613515895e-002dB,-3.43148406527828e+000°)
5.12861383991362e+001	(8.51219845131477e-002dB,-3.51152239882983e+000°)
5.24807460249770e+001	(8.51471736992089e-002dB,-3.59343283513979e+000°)
5.37031796370250e+001	(8.51734723116565e-002dB,-3.67725953548310e+000°)
5.49540873857622e+001	(8.52009251379297e-002dB,-3.76304772926933e+000°)
5.62341325190346e+001	(8.52295783525677e-002dB,-3.85084374172671e+000°)
5.75439937337154e+001	(8.52594795127836e-002dB,-3.94069502242907e+000°)
5.88843655355586e+001	(8.52906775469927e-002dB,-4.03265017469910e+000°)
6.02559586074355e+001	(8.53232227354926e-002dB,-4.12675898592335e+000°)
6.16595001861479e+001	(8.53571666820478e-002dB,-4.22307245881596e+000°)
6.30957344480190e+001	(8.53925622752862e-002dB,-4.32164284367002e+000°)
6.45654229034652e+001	(8.54294636385370e-002dB,-4.42252367163777e+000°)
6.60693448007593e+001	(8.54679260665558e-002dB,-4.52576978908293e+000°)
6.76082975391978e+001	(8.55080059476151e-002dB,-4.63143739305067e+000°)
6.91830970918933e+001	(8.55497606690069e-002dB,-4.73958406790319e+000°)
7.07945784384134e+001	(8.55932485040066e-002dB,-4.85026882317211e+000°)
7.24435960074986e+001	(8.56385284780903e-002dB,-4.96355213267997e+000°)
7.41310241300914e+001	(8.56856602118286e-002dB,-5.07949597498868e+000°)
7.58577575029180e+001	(8.57347037378222e-002dB,-5.19816387523305e+000°)
7.76247116628688e+001	(8.57857192886183e-002dB,-5.31962094840297e+000°)
7.94328234724277e+001	(8.58387670522370e-002dB,-5.44393394414033e+000°)
8.12830516164095e+001	(8.58939068917581e-002dB,-5.57117129312028e+000°)
8.31763771102667e+001	(8.59511980246422e-002dB,-5.70140315509115e+000°)
8.51138038202372e+001	(8.60106986576115e-002dB,-5.83470146865075e+000°)
8.70963589956076e+001	(8.60724655718929e-002dB,-5.97114000284158e+000°)
8.91250938133741e+001	(8.61365536534950e-002dB,-6.11079441065171e+000°)
9.12010839355905e+001	(8.62030153624690e-002dB,-6.25374228451371e+000°)
9.33254300796986e+001	(8.62719001344705e-002dB,-6.40006321389832e+000°)
9.54992586021431e+001	(8.63432537074113e-002dB,-6.54983884510570e+000°)
9.77237220955805e+001	(8.64171173651042e-002dB,-6.70315294336251e+000°)
9.99999999999995e+001	(8.64935270889397e-002dB,-6.86009145733962e+000°)
1.02329299228075e+002	(8.65725126080451e-002dB,-7.02074258621082e+000°)
1.04712854805089e+002	(8.66540963369410e-002dB,-7.18519684938101e+000°)
1.07151930523760e+002	(8.67382921891154e-002dB,-7.35354715901804e+000°)
1.09647819614318e+002	(8.68251042531605e-002dB,-7.52588889553120e+000°)
1.12201845430196e+002	(8.69145253176120e-002dB,-7.70231998614629e+000°)
1.14815362149688e+002	(8.70065352282242e-002dB,-7.88294098673624e+000°)
1.17489755493952e+002	(8.71010990608117e-002dB,-8.06785516707403e+000°)
1.20226443461741e+002	(8.71981650902682e-002dB,-8.25716859968536e+000°)
1.23026877081237e+002	(8.72976625350069e-002dB,-8.45099025248587e+000°)
1.25892541179416e+002	(8.73994990537420e-002dB,-8.64943208539984e+000°)
1.28824955169313e+002	(8.75035579692245e-002dB,-8.85260915116602e+000°)
1.31825673855640e+002	(8.76096951912477e-002dB,-9.06063970054799e+000°)
1.34896288259165e+002	(8.77177358082738e-002dB,-9.27364529217716e+000°)
1.38038426460288e+002	(8.78274703140638e-002dB,-9.49175090726818e+000°)
1.41253754462275e+002	(8.79386504325464e-002dB,-9.71508506945849e+000°)
1.44543977074592e+002	(8.80509845002714e-002dB,-9.94377997003567e+000°)
1.47910838816820e+002	(8.81641323621186e-002dB,-1.01779715988294e+001°)
1.51356124843620e+002	(8.82776997311869e-002dB,-1.04177998810568e+001°)
1.54881661891247e+002	(8.83912319595252e-002dB,-1.06634088204234e+001°)
1.58489319246110e+002	(8.85042071606170e-002dB,-1.09149466487939e+001°)
1.62181009735892e+002	(8.86160286191292e-002dB,-1.11725659827618e+001°)
1.65958690743755e+002	(8.87260164170415e-002dB,-1.14364239874573e+001°)
1.69824365246173e+002	(8.88333981984865e-002dB,-1.17066825479469e+001°)
1.73780082874936e+002	(8.89372989878838e-002dB,-1.19835084485896e+001°)
1.77827941003891e+002	(8.90367299680421e-002dB,-1.22670735607254e+001°)
1.81970085860997e+002	(8.91305761156418e-002dB,-1.25575550390821e+001°)
1.86208713666286e+002	(8.92175825818339e-002dB,-1.28551355272969e+001°)
1.90546071796323e+002	(8.92963396947796e-002dB,-1.31600033729521e+001°)
1.94984459975803e+002	(8.93652664494456e-002dB,-1.34723528525364e+001°)
1.99526231496887e+002	(8.94225923368972e-002dB,-1.37923844067383e+001°)
2.04173794466952e+002	(8.94663373515618e-002dB,-1.41203048864828e+001°)
2.08929613085403e+002	(8.94942899995652e-002dB,-1.44563278101171e+001°)
2.13796208950222e+002	(8.95039831147327e-002dB,-1.48006736321399e+001°)
2.18776162394954e+002	(8.94926672707462e-002dB,-1.51535700238576e+001°)
2.23872113856832e+002	(8.94572815582746e-002dB,-1.55152521663273e+001°)
2.29086765276776e+002	(8.93944214747502e-002dB,-1.58859630559201e+001°)
2.34422881531991e+002	(8.93003036511127e-002dB,-1.62659538227973e+001°)
2.39883291901947e+002	(8.91707271148949e-002dB,-1.66554840625473e+001°)
2.45470891568501e+002	(8.90010307620121e-002dB,-1.70548221811678e+001°)
2.51188643150956e+002	(8.87860466802828e-002dB,-1.74642457535024e+001°)
2.57039578276885e+002	(8.85200489361486e-002dB,-1.78840418951497e+001°)
2.63026799189536e+002	(8.81966974022888e-002dB,-1.83145076477494e+001°)
2.69153480392690e+002	(8.78089761674119e-002dB,-1.87559503774163e+001°)
2.75422870333815e+002	(8.73491260306793e-002dB,-1.92086881859308e+001°)
2.81838293126443e+002	(8.68085705416713e-002dB,-1.96730503341034e+001°)
2.88403150312659e+002	(8.61778350029882e-002dB,-2.01493776765072e+001°)
2.95120922666637e+002	(8.54464578058975e-002dB,-2.06380231065012e+001°)
3.01995172040200e+002	(8.46028934206060e-002dB,-2.11393520101612e+001°)
3.09029543251357e+002	(8.36344063114008e-002dB,-2.16537427273705e+001°)
3.16227766016836e+002	(8.25269549940885e-002dB,-2.21815870178971e+001°)
3.23593656929626e+002	(8.12650653981487e-002dB,-2.27232905298012e+001°)
3.31131121482589e+002	(7.98316926406458e-002dB,-2.32792732669470e+001°)
3.38844156139200e+002	(7.82080702628752e-002dB,-2.38499700517463e+001°)
3.46736850452529e+002	(7.63735459256967e-002dB,-2.44358309785152e+001°)
3.54813389233573e+002	(7.43054025060828e-002dB,-2.50373218519726e+001°)
3.63078054770099e+002	(7.19786634879138e-002dB,-2.56549246044390e+001°)
3.71535229097170e+002	(6.93658814955370e-002dB,-2.62891376841904e+001°)
3.80189396320558e+002	(6.64369087822907e-002dB,-2.69404764061731e+001°)
3.89045144994278e+002	(6.31586484605890e-002dB,-2.76094732548771e+001°)
3.98107170553494e+002	(5.94947852484576e-002dB,-2.82966781275879e+001°)
4.07380277804110e+002	(5.54054945151097e-002dB,-2.90026585044642e+001°)
4.16869383470332e+002	(5.08471284386910e-002dB,-2.97279995299268e+001°)
4.26579518801589e+002	(4.57718781501416e-002dB,-3.04733039876687e+001°)
4.36515832240163e+002	(4.01274108346194e-002dB,-3.12391921492036e+001°)
4.46683592150960e+002	(3.38564809043604e-002dB,-3.20263014732590e+001°)
4.57088189614872e+002	(2.68965145541113e-002dB,-3.28352861304957e+001°)
4.67735141287195e+002	(1.91791672728076e-002dB,-3.36668163249982e+001°)
4.78630092322635e+002	(1.06298542255225e-002dB,-3.45215773807690e+001°)
4.89778819368443e+002	(1.16725385127089e-003dB,-3.54002685580914e+001°)
5.01187233627268e+002	(-9.29721443965814e-003dB,-3.63036015611705e+001°)
5.12861383991361e+002	(-2.08599369248963e-002dB,-3.72322986949769e+001°)
5.24807460249769e+002	(-3.36256742422365e-002dB,-3.81870906258269e+001°)
